T6820 000:003.296   SEGGER J-Link V8.44a Log File
T6820 000:003.636   DLL Compiled: Jun 18 2025 16:28:32
T6820 000:003.652   Logging started @ 2025-07-25 03:07
T6820 000:003.667   Process: C:\Users\trung.tran-quoc\.eclipse\com.renesas.platform_1403626421\DebugComp\RA\e2-server-gdb.exe
T6820 000:003.701 - 3.681ms 
T6820 000:003.731 JLINK_GetDLLVersion()
T6820 000:003.747 - 0.016ms returns 84401
T6820 000:064.288 JLINK_OpenEx(...)
T6820 000:119.199   Firmware: J-Link OB-RA4M2 compiled Apr  1 2025 10:13:55
T6820 000:121.638   Firmware: J-Link OB-RA4M2 compiled Apr  1 2025 10:13:55
T6820 000:138.769   Hardware: V1.00
T6820 000:138.836   S/N: 1087319035
T6820 000:138.857   OEM: SEGGER
T6820 000:138.885   Feature(s): None
T6820 000:139.783   Bootloader: 2021 May 14
T6820 000:140.554   USB speed mode: Full speed (12 MBit/s)
T6820 000:141.055   TELNET listener socket opened on port 19021
T6820 000:141.272   WEBSRV WEBSRV_Init(): Starting webserver thread(s)
T6820 000:141.491   WEBSRV Webserver running on local port 19080
T6820 000:141.713   Looking for J-Link GUI Server exe at: C:\Users\trung.tran-quoc\.eclipse\com.renesas.platform_1403626421\DebugComp\RA\ARM\Segger_v8.44.1\JLinkGUIServer.exe
T6820 000:141.923   Looking for J-Link GUI Server exe at: C:\Users\trung.tran-quoc\SEGGER\JLink_V852\JLinkGUIServer.exe
T6820 000:141.971   Forking J-Link GUI Server: C:\Users\trung.tran-quoc\SEGGER\JLink_V852\JLinkGUIServer.exe
T6820 000:248.377   J-Link GUI Server info: "J-Link GUI server V8.52 "
T6820 000:268.841 - 204.545ms returns "O.K."
T6820 000:269.011 JLINK_TIF_Select(JLINKARM_TIF_SWD)
T6820 000:269.994 - 0.982ms returns 0x00
T6820 000:270.035 JLINK_ClrRESET()
T6820 000:270.354 - 0.319ms 
T6820 000:322.317 JLINK_SetSpeed(1500)
T6820 000:322.583 - 0.274ms 
T6820 000:322.622 JLINK_CORESIGHT_Configure(PerformTIFInit=0)
T6820 000:323.214 - 0.592ms returns 0
T6820 000:323.280 JLINK_CORESIGHT_ReadAPDPReg(DP reg 0x00)
T6820 000:323.863   Value=0x6BA02477
T6820 000:323.904 - 0.632ms returns 0
T6820 000:323.938 JLINK_CORESIGHT_WriteAPDPReg(DP reg 0x00, 0x0000001F)
T6820 000:324.268 - 0.330ms returns 0
T6820 000:324.310 JLINK_CORESIGHT_ReadAPDPReg(DP reg 0x00)
T6820 000:324.686   Value=0x6BA02477
T6820 000:324.727 - 0.417ms returns 0
T6820 000:324.748 JLINK_CORESIGHT_WriteAPDPReg(DP reg 0x02, 0x00000000)
T6820 000:325.059 - 0.310ms returns 0
T6820 000:325.097 JLINK_CORESIGHT_WriteAPDPReg(DP reg 0x01, 0x50000000)
T6820 000:325.404 - 0.307ms returns 0
T6820 000:325.461 JLINK_CORESIGHT_ReadAPDPReg(DP reg 0x01)
T6820 000:325.768   Value=0xF0000040
T6820 000:325.814 - 0.353ms returns 0
T6820 000:325.849 JLINK_CORESIGHT_WriteAPDPReg(DP reg 0x00, 0x0000001F)
T6820 000:326.272 - 0.423ms returns 0
T6820 000:326.316 JLINK_CORESIGHT_ReadAPDPReg(DP reg 0x00)
T6820 000:326.686   Value=0x6BA02477
T6820 000:326.727 - 0.411ms returns 0
T6820 000:326.748 JLINK_CORESIGHT_WriteAPDPReg(DP reg 0x01, 0x54000000)
T6820 000:327.057 - 0.308ms returns 0
T6820 000:327.095 JLINK_CORESIGHT_WriteAPDPReg(DP reg 0x01, 0x50000F00)
T6820 000:327.419 - 0.324ms returns 0
T6820 000:327.458 JLINK_CORESIGHT_WriteAPDPReg(DP reg 0x02, 0x01000000)
T6820 000:327.828 - 0.370ms returns 0
T6820 000:327.867 JLINK_CORESIGHT_WriteAPDPReg(AP reg 0x00, 0x80000002)
T6820 000:328.168 - 0.301ms returns 0
T6820 000:328.207 JLINK_CORESIGHT_WriteAPDPReg(AP reg 0x01, 0x80011100)
T6820 000:328.452 - 0.244ms returns 0
T6820 000:328.476 JLINK_CORESIGHT_WriteAPDPReg(AP reg 0x03, 0x000000A5)
T6820 000:328.769 - 0.293ms returns 0
T6820 000:328.790 JLINK_CORESIGHT_WriteAPDPReg(AP reg 0x00, 0x80000002)
T6820 000:329.075 - 0.285ms returns 0
T6820 000:329.097 JLINK_CORESIGHT_WriteAPDPReg(AP reg 0x01, 0x80011100)
T6820 000:329.337 - 0.240ms returns 0
T6820 000:329.361 JLINK_CORESIGHT_ReadAPDPReg(AP reg 0x03)
T6820 000:329.811   Value=0x000000A5
T6820 000:329.840 - 0.479ms returns 0
T6820 000:329.859 JLINK_ClrTMS()
T6820 000:329.977 - 0.118ms 
T6820 000:335.387 JLINK_SetTCK()
T6820 000:335.601 - 0.213ms returns 0
T6820 000:341.416 JLINK_SetRESET()
T6820 000:341.680 - 0.264ms 
T6820 000:542.448 JLINK_CORESIGHT_WriteAPDPReg(AP reg 0x00, 0x80000002)
T6820 000:542.824 - 0.375ms returns 0
T6820 000:542.852 JLINK_CORESIGHT_WriteAPDPReg(AP reg 0x01, 0x80011100)
T6820 000:543.234 - 0.382ms returns 0
T6820 000:543.255 JLINK_CORESIGHT_ReadAPDPReg(AP reg 0x03)
T6820 000:543.630   Value=0x00000000
T6820 000:543.653 - 0.398ms returns 0
T6820 000:543.672 JLINK_CORESIGHT_WriteAPDPReg(AP reg 0x00, 0x80000002)
T6820 000:544.039 - 0.367ms returns 0
T6820 000:544.058 JLINK_CORESIGHT_WriteAPDPReg(AP reg 0x01, 0x80011140)
T6820 000:544.390 - 0.332ms returns 0
T6820 000:544.411 JLINK_CORESIGHT_ReadAPDPReg(AP reg 0x03)
T6820 000:544.794   Value=0x00000002
T6820 000:544.816 - 0.404ms returns 0
T6820 000:544.832 JLINK_CORESIGHT_WriteAPDPReg(AP reg 0x00, 0x80000002)
T6820 000:545.221 - 0.389ms returns 0
T6820 000:545.240 JLINK_CORESIGHT_WriteAPDPReg(AP reg 0x01, 0x80011120)
T6820 000:545.633 - 0.393ms returns 0
T6820 000:545.654 JLINK_CORESIGHT_WriteAPDPReg(AP reg 0x03, 0x00000055)
T6820 000:545.988 - 0.334ms returns 0
T6820 000:546.007 JLINK_CORESIGHT_WriteAPDPReg(AP reg 0x00, 0x80000002)
T6820 000:546.339 - 0.332ms returns 0
T6820 000:546.361 JLINK_CORESIGHT_WriteAPDPReg(AP reg 0x01, 0x80011140)
T6820 000:546.806 - 0.445ms returns 0
T6820 000:546.828 JLINK_CORESIGHT_ReadAPDPReg(AP reg 0x03)
T6820 000:547.224   Value=0x00000000
T6820 000:547.249 - 0.420ms returns 0
T6820 000:547.265 JLINK_CORESIGHT_WriteAPDPReg(AP reg 0x00, 0x80000002)
T6820 000:547.694 - 0.427ms returns 0
T6820 000:547.739 JLINK_CORESIGHT_WriteAPDPReg(AP reg 0x01, 0x80011130)
T6820 000:548.029 - 0.290ms returns 0
T6820 000:548.050 JLINK_CORESIGHT_ReadAPDPReg(AP reg 0x03)
T6820 000:548.565   Value=0x000000C6
T6820 000:548.603 - 0.553ms returns 0
T6820 000:548.629 JLINK_CORESIGHT_WriteAPDPReg(AP reg 0x00, 0x80000002)
T6820 000:548.883 - 0.254ms returns 0
T6820 000:548.905 JLINK_CORESIGHT_WriteAPDPReg(AP reg 0x01, 0x80011140)
T6820 000:549.145 - 0.240ms returns 0
T6820 000:549.167 JLINK_CORESIGHT_ReadAPDPReg(AP reg 0x03)
T6820 000:549.641   Value=0x00000002
T6820 000:549.664 - 0.497ms returns 0
T6820 000:549.682 JLINK_CORESIGHT_WriteAPDPReg(AP reg 0x00, 0x80000002)
T6820 000:549.915 - 0.233ms returns 0
T6820 000:549.939 JLINK_CORESIGHT_WriteAPDPReg(AP reg 0x01, 0x80011120)
T6820 000:550.218 - 0.279ms returns 0
T6820 000:550.241 JLINK_CORESIGHT_WriteAPDPReg(AP reg 0x03, 0x3A010001)
T6820 000:550.489 - 0.248ms returns 0
T6820 000:550.510 JLINK_CORESIGHT_WriteAPDPReg(AP reg 0x00, 0x80000002)
T6820 000:550.826 - 0.316ms returns 0
T6820 000:550.848 JLINK_CORESIGHT_WriteAPDPReg(AP reg 0x01, 0x80011140)
T6820 000:551.131 - 0.283ms returns 0
T6820 000:551.154 JLINK_CORESIGHT_ReadAPDPReg(AP reg 0x03)
T6820 000:551.456   Value=0x00000002
T6820 000:551.481 - 0.328ms returns 0
T6820 000:551.498 JLINK_CORESIGHT_WriteAPDPReg(AP reg 0x00, 0x80000002)
T6820 000:551.772 - 0.274ms returns 0
T6820 000:551.794 JLINK_CORESIGHT_WriteAPDPReg(AP reg 0x01, 0x80011120)
T6820 000:552.039 - 0.245ms returns 0
T6820 000:552.064 JLINK_CORESIGHT_WriteAPDPReg(AP reg 0x03, 0x000003C5)
T6820 000:552.500 - 0.435ms returns 0
T6820 000:552.560 JLINK_CORESIGHT_WriteAPDPReg(AP reg 0x00, 0x80000002)
T6820 000:552.859 - 0.298ms returns 0
T6820 000:552.892 JLINK_CORESIGHT_WriteAPDPReg(AP reg 0x01, 0x80011140)
T6820 000:553.259 - 0.367ms returns 0
T6820 000:553.283 JLINK_CORESIGHT_ReadAPDPReg(AP reg 0x03)
T6820 000:553.636   Value=0x00000002
T6820 000:553.662 - 0.378ms returns 0
T6820 000:553.680 JLINK_CORESIGHT_ReadAPDPReg(AP reg 0x03)
T6820 000:554.077   Value=0x00000002
T6820 000:554.099 - 0.419ms returns 0
T6820 000:554.116 JLINK_CORESIGHT_ReadAPDPReg(AP reg 0x03)
T6820 000:554.502   Value=0x00000002
T6820 000:554.524 - 0.408ms returns 0
T6820 000:554.544 JLINK_CORESIGHT_ReadAPDPReg(AP reg 0x03)
T6820 000:554.998   Value=0x00000000
T6820 000:555.022 - 0.478ms returns 0
T6820 000:555.041 JLINK_CORESIGHT_WriteAPDPReg(AP reg 0x00, 0x80000002)
T6820 000:555.468 - 0.425ms returns 0
T6820 000:555.495 JLINK_CORESIGHT_WriteAPDPReg(AP reg 0x01, 0x80011130)
T6820 000:555.774 - 0.279ms returns 0
T6820 000:555.796 JLINK_CORESIGHT_ReadAPDPReg(AP reg 0x03)
T6820 000:556.191   Value=0x3A2A0081
T6820 000:556.216 - 0.419ms returns 0
T6820 000:556.235 JLINK_CORESIGHT_WriteAPDPReg(AP reg 0x00, 0x80000002)
T6820 000:556.525 - 0.289ms returns 0
T6820 000:556.551 JLINK_CORESIGHT_WriteAPDPReg(AP reg 0x01, 0x80011140)
T6820 000:556.834 - 0.283ms returns 0
T6820 000:556.860 JLINK_CORESIGHT_ReadAPDPReg(AP reg 0x03)
T6820 000:557.283   Value=0x00000000
T6820 000:557.312 - 0.452ms returns 0
T6820 000:557.333 JLINK_CORESIGHT_WriteAPDPReg(AP reg 0x00, 0x80000002)
T6820 000:557.663 - 0.329ms returns 0
T6820 000:557.705 JLINK_CORESIGHT_WriteAPDPReg(AP reg 0x01, 0x80011130)
T6820 000:558.020 - 0.314ms returns 0
T6820 000:558.063 JLINK_CORESIGHT_ReadAPDPReg(AP reg 0x03)
T6820 000:558.454   Value=0x808D5B00
T6820 000:558.487 - 0.424ms returns 0
T6820 000:558.509 JLINK_CORESIGHT_WriteAPDPReg(AP reg 0x00, 0x80000002)
T6820 000:558.872 - 0.363ms returns 0
T6820 000:558.901 JLINK_CORESIGHT_WriteAPDPReg(AP reg 0x01, 0x80011140)
T6820 000:559.176 - 0.274ms returns 0
T6820 000:559.204 JLINK_CORESIGHT_ReadAPDPReg(AP reg 0x03)
T6820 000:559.681   Value=0x00000000
T6820 000:559.739 - 0.534ms returns 0
T6820 000:559.762 JLINK_CORESIGHT_WriteAPDPReg(AP reg 0x00, 0x80000002)
T6820 000:560.121 - 0.358ms returns 0
T6820 000:560.150 JLINK_CORESIGHT_WriteAPDPReg(AP reg 0x01, 0x80011130)
T6820 000:560.543 - 0.393ms returns 0
T6820 000:560.569 JLINK_CORESIGHT_ReadAPDPReg(AP reg 0x03)
T6820 000:561.024   Value=0x0603030B
T6820 000:561.051 - 0.481ms returns 0
T6820 000:561.071 JLINK_CORESIGHT_WriteAPDPReg(AP reg 0x00, 0x80000002)
T6820 000:561.400 - 0.328ms returns 0
T6820 000:561.427 JLINK_CORESIGHT_WriteAPDPReg(AP reg 0x01, 0x80011140)
T6820 000:561.776 - 0.350ms returns 0
T6820 000:561.801 JLINK_CORESIGHT_ReadAPDPReg(AP reg 0x03)
T6820 000:562.377   Value=0x00000000
T6820 000:562.405 - 0.604ms returns 0
T6820 000:562.425 JLINK_CORESIGHT_WriteAPDPReg(AP reg 0x00, 0x80000002)
T6820 000:562.856 - 0.431ms returns 0
T6820 000:562.879 JLINK_CORESIGHT_WriteAPDPReg(AP reg 0x01, 0x80011130)
T6820 000:563.310 - 0.431ms returns 0
T6820 000:563.333 JLINK_CORESIGHT_ReadAPDPReg(AP reg 0x03)
T6820 000:563.747   Value=0x2E4B4E20
T6820 000:563.770 - 0.436ms returns 0
T6820 000:563.788 JLINK_CORESIGHT_WriteAPDPReg(AP reg 0x00, 0x80000002)
T6820 000:564.220 - 0.432ms returns 0
T6820 000:564.244 JLINK_CORESIGHT_WriteAPDPReg(AP reg 0x01, 0x80011140)
T6820 000:564.650 - 0.405ms returns 0
T6820 000:564.676 JLINK_CORESIGHT_ReadAPDPReg(AP reg 0x03)
T6820 000:565.120   Value=0x00000000
T6820 000:565.147 - 0.471ms returns 0
T6820 000:565.166 JLINK_CORESIGHT_WriteAPDPReg(AP reg 0x00, 0x80000002)
T6820 000:565.569 - 0.403ms returns 0
T6820 000:565.595 JLINK_CORESIGHT_WriteAPDPReg(AP reg 0x01, 0x80011130)
T6820 000:565.950 - 0.354ms returns 0
T6820 000:565.971 JLINK_CORESIGHT_ReadAPDPReg(AP reg 0x03)
T6820 000:566.264   Value=0x4E9E3392
T6820 000:566.288 - 0.317ms returns 0
T6820 000:566.310 JLINK_CORESIGHT_WriteAPDPReg(AP reg 0x00, 0x80000002)
T6820 000:566.651 - 0.341ms returns 0
T6820 000:566.676 JLINK_CORESIGHT_WriteAPDPReg(AP reg 0x01, 0x80011140)
T6820 000:566.984 - 0.307ms returns 0
T6820 000:567.033 JLINK_CORESIGHT_ReadAPDPReg(AP reg 0x03)
T6820 000:567.369   Value=0x00000000
T6820 000:567.397 - 0.364ms returns 0
T6820 000:567.417 JLINK_CORESIGHT_WriteAPDPReg(AP reg 0x00, 0x80000002)
T6820 000:567.808 - 0.391ms returns 0
T6820 000:567.832 JLINK_CORESIGHT_WriteAPDPReg(AP reg 0x01, 0x80011130)
T6820 000:568.147 - 0.315ms returns 0
T6820 000:568.170 JLINK_CORESIGHT_ReadAPDPReg(AP reg 0x03)
T6820 000:568.520   Value=0x34503036
T6820 000:568.546 - 0.376ms returns 0
T6820 000:568.566 JLINK_CORESIGHT_WriteAPDPReg(AP reg 0x00, 0x80000002)
T6820 000:568.946 - 0.379ms returns 0
T6820 000:569.021 JLINK_CORESIGHT_WriteAPDPReg(AP reg 0x01, 0x80011140)
T6820 000:569.372 - 0.351ms returns 0
T6820 000:569.437 JLINK_CORESIGHT_ReadAPDPReg(AP reg 0x03)
T6820 000:569.901   Value=0x00000000
T6820 000:569.938 - 0.501ms returns 0
T6820 000:569.960 JLINK_CORESIGHT_WriteAPDPReg(AP reg 0x00, 0x80000002)
T6820 000:570.235 - 0.276ms returns 0
T6820 000:570.260 JLINK_CORESIGHT_WriteAPDPReg(AP reg 0x01, 0x80011130)
T6820 000:570.536 - 0.276ms returns 0
T6820 000:570.558 JLINK_CORESIGHT_ReadAPDPReg(AP reg 0x03)
T6820 000:571.003   Value=0x72142D36
T6820 000:571.038 - 0.479ms returns 0
T6820 000:571.059 JLINK_CORESIGHT_WriteAPDPReg(AP reg 0x00, 0x80000002)
T6820 000:571.455 - 0.396ms returns 0
T6820 000:571.479 JLINK_CORESIGHT_WriteAPDPReg(AP reg 0x01, 0x80011140)
T6820 000:571.828 - 0.349ms returns 0
T6820 000:572.671 JLINK_CORESIGHT_ReadAPDPReg(AP reg 0x03)
T6820 000:573.148   Value=0x00000000
T6820 000:573.238 - 0.566ms returns 0
T6820 000:573.260 JLINK_CORESIGHT_WriteAPDPReg(AP reg 0x00, 0x80000002)
T6820 000:573.514 - 0.255ms returns 0
T6820 000:573.536 JLINK_CORESIGHT_WriteAPDPReg(AP reg 0x01, 0x80011130)
T6820 000:573.838 - 0.302ms returns 0
T6820 000:573.875 JLINK_CORESIGHT_ReadAPDPReg(AP reg 0x03)
T6820 000:574.201   Value=0x4637527F
T6820 000:574.227 - 0.352ms returns 0
T6820 000:574.244 JLINK_CORESIGHT_WriteAPDPReg(AP reg 0x00, 0x80000002)
T6820 000:574.535 - 0.290ms returns 0
T6820 000:574.555 JLINK_CORESIGHT_WriteAPDPReg(AP reg 0x01, 0x80011140)
T6820 000:574.790 - 0.235ms returns 0
T6820 000:574.809 JLINK_CORESIGHT_ReadAPDPReg(AP reg 0x03)
T6820 000:575.242   Value=0x00000000
T6820 000:575.266 - 0.457ms returns 0
T6820 000:575.283 JLINK_CORESIGHT_WriteAPDPReg(AP reg 0x00, 0x80000002)
T6820 000:575.743 - 0.459ms returns 0
T6820 000:575.853 JLINK_CORESIGHT_WriteAPDPReg(AP reg 0x01, 0x80011130)
T6820 000:576.124 - 0.272ms returns 0
T6820 000:576.145 JLINK_CORESIGHT_ReadAPDPReg(AP reg 0x03)
T6820 000:576.490   Value=0x314D3841
T6820 000:576.512 - 0.367ms returns 0
T6820 000:576.529 JLINK_CORESIGHT_WriteAPDPReg(AP reg 0x00, 0x80000002)
T6820 000:576.794 - 0.265ms returns 0
T6820 000:576.812 JLINK_CORESIGHT_WriteAPDPReg(AP reg 0x01, 0x80011140)
T6820 000:577.040 - 0.228ms returns 0
T6820 000:577.059 JLINK_CORESIGHT_ReadAPDPReg(AP reg 0x03)
T6820 000:577.375   Value=0x00000000
T6820 000:577.428 - 0.368ms returns 0
T6820 000:577.445 JLINK_CORESIGHT_WriteAPDPReg(AP reg 0x00, 0x80000002)
T6820 000:577.703 - 0.259ms returns 0
T6820 000:577.723 JLINK_CORESIGHT_WriteAPDPReg(AP reg 0x01, 0x80011130)
T6820 000:578.008 - 0.285ms returns 0
T6820 000:578.028 JLINK_CORESIGHT_ReadAPDPReg(AP reg 0x03)
T6820 000:578.334   Value=0x43454841
T6820 000:578.358 - 0.330ms returns 0
T6820 000:578.374 JLINK_CORESIGHT_WriteAPDPReg(AP reg 0x00, 0x80000002)
T6820 000:578.641 - 0.267ms returns 0
T6820 000:578.662 JLINK_CORESIGHT_WriteAPDPReg(AP reg 0x01, 0x80011140)
T6820 000:578.913 - 0.250ms returns 0
T6820 000:578.933 JLINK_CORESIGHT_ReadAPDPReg(AP reg 0x03)
T6820 000:579.320   Value=0x00000000
T6820 000:579.343 - 0.410ms returns 0
T6820 000:579.361 JLINK_CORESIGHT_WriteAPDPReg(AP reg 0x00, 0x80000002)
T6820 000:579.639 - 0.278ms returns 0
T6820 000:579.660 JLINK_CORESIGHT_WriteAPDPReg(AP reg 0x01, 0x80011130)
T6820 000:579.884 - 0.224ms returns 0
T6820 000:579.904 JLINK_CORESIGHT_ReadAPDPReg(AP reg 0x03)
T6820 000:580.298   Value=0x20204442
T6820 000:580.321 - 0.417ms returns 0
T6820 000:580.337 JLINK_CORESIGHT_WriteAPDPReg(AP reg 0x00, 0x80000002)
T6820 000:580.636 - 0.299ms returns 0
T6820 000:580.659 JLINK_CORESIGHT_WriteAPDPReg(AP reg 0x01, 0x80011140)
T6820 000:580.931 - 0.272ms returns 0
T6820 000:580.951 JLINK_CORESIGHT_ReadAPDPReg(AP reg 0x03)
T6820 000:581.435   Value=0x00000000
T6820 000:581.464 - 0.513ms returns 0
T6820 000:581.482 JLINK_CORESIGHT_WriteAPDPReg(AP reg 0x00, 0x80000002)
T6820 000:581.763 - 0.282ms returns 0
T6820 000:581.784 JLINK_CORESIGHT_WriteAPDPReg(AP reg 0x01, 0x80011130)
T6820 000:582.062 - 0.279ms returns 0
T6820 000:582.082 JLINK_CORESIGHT_ReadAPDPReg(AP reg 0x03)
T6820 000:582.393   Value=0x00037620
T6820 000:582.416 - 0.334ms returns 0
T6820 000:582.543 JLINK_CORESIGHT_WriteAPDPReg(AP reg 0x00, 0x80000002)
T6820 000:582.920 - 0.376ms returns 0
T6820 000:582.944 JLINK_CORESIGHT_WriteAPDPReg(AP reg 0x01, 0x80011140)
T6820 000:583.183 - 0.238ms returns 0
T6820 000:583.204 JLINK_CORESIGHT_ReadAPDPReg(AP reg 0x03)
T6820 000:583.513   Value=0x00000002
T6820 000:583.537 - 0.333ms returns 0
T6820 000:583.554 JLINK_CORESIGHT_WriteAPDPReg(AP reg 0x00, 0x80000002)
T6820 000:583.834 - 0.279ms returns 0
T6820 000:583.871 JLINK_CORESIGHT_WriteAPDPReg(AP reg 0x01, 0x80011120)
T6820 000:584.136 - 0.264ms returns 0
T6820 000:584.159 JLINK_CORESIGHT_WriteAPDPReg(AP reg 0x03, 0x2C010001)
T6820 000:584.434 - 0.275ms returns 0
T6820 000:584.455 JLINK_CORESIGHT_WriteAPDPReg(AP reg 0x00, 0x80000002)
T6820 000:584.882 - 0.427ms returns 0
T6820 000:584.905 JLINK_CORESIGHT_WriteAPDPReg(AP reg 0x01, 0x80011140)
T6820 000:585.133 - 0.228ms returns 0
T6820 000:585.153 JLINK_CORESIGHT_ReadAPDPReg(AP reg 0x03)
T6820 000:585.627   Value=0x00000002
T6820 000:585.656 - 0.502ms returns 0
T6820 000:585.673 JLINK_CORESIGHT_WriteAPDPReg(AP reg 0x00, 0x80000002)
T6820 000:585.974 - 0.301ms returns 0
T6820 000:585.995 JLINK_CORESIGHT_WriteAPDPReg(AP reg 0x01, 0x80011120)
T6820 000:586.238 - 0.243ms returns 0
T6820 000:586.257 JLINK_CORESIGHT_WriteAPDPReg(AP reg 0x03, 0x000003D3)
T6820 000:586.676 - 0.419ms returns 0
T6820 000:586.698 JLINK_CORESIGHT_WriteAPDPReg(AP reg 0x00, 0x80000002)
T6820 000:587.283 - 0.585ms returns 0
T6820 000:587.306 JLINK_CORESIGHT_WriteAPDPReg(AP reg 0x01, 0x80011140)
T6820 000:587.564 - 0.258ms returns 0
T6820 000:587.583 JLINK_CORESIGHT_ReadAPDPReg(AP reg 0x03)
T6820 000:587.913   Value=0x00000002
T6820 000:587.934 - 0.351ms returns 0
T6820 000:587.950 JLINK_CORESIGHT_ReadAPDPReg(AP reg 0x03)
T6820 000:588.247   Value=0x00000002
T6820 000:588.269 - 0.318ms returns 0
T6820 000:588.285 JLINK_CORESIGHT_ReadAPDPReg(AP reg 0x03)
T6820 000:588.632   Value=0x00000002
T6820 000:588.655 - 0.369ms returns 0
T6820 000:588.672 JLINK_CORESIGHT_ReadAPDPReg(AP reg 0x03)
T6820 000:588.928   Value=0x00000002
T6820 000:588.954 - 0.281ms returns 0
T6820 000:588.970 JLINK_CORESIGHT_ReadAPDPReg(AP reg 0x03)
T6820 000:589.353   Value=0x00000000
T6820 000:589.375 - 0.404ms returns 0
T6820 000:589.391 JLINK_CORESIGHT_WriteAPDPReg(AP reg 0x00, 0x80000002)
T6820 000:589.638 - 0.247ms returns 0
T6820 000:589.657 JLINK_CORESIGHT_WriteAPDPReg(AP reg 0x01, 0x80011130)
T6820 000:589.942 - 0.284ms returns 0
T6820 000:589.963 JLINK_CORESIGHT_ReadAPDPReg(AP reg 0x03)
T6820 000:590.259   Value=0x2C020081
T6820 000:590.280 - 0.317ms returns 0
T6820 000:590.296 JLINK_CORESIGHT_WriteAPDPReg(AP reg 0x00, 0x80000002)
T6820 000:592.404 - 2.108ms returns 0
T6820 000:592.431 JLINK_CORESIGHT_WriteAPDPReg(AP reg 0x01, 0x80011140)
T6820 000:592.831 - 0.401ms returns 0
T6820 000:592.853 JLINK_CORESIGHT_ReadAPDPReg(AP reg 0x03)
T6820 000:593.182   Value=0x00000000
T6820 000:593.227 - 0.374ms returns 0
T6820 000:593.243 JLINK_CORESIGHT_WriteAPDPReg(AP reg 0x00, 0x80000002)
T6820 000:595.397 - 2.154ms returns 0
T6820 000:595.420 JLINK_CORESIGHT_WriteAPDPReg(AP reg 0x01, 0x80011130)
T6820 000:597.433 - 2.006ms returns 0
T6820 000:597.492 JLINK_CORESIGHT_ReadAPDPReg(AP reg 0x03)
T6820 000:597.826   Value=0x0003CE04
T6820 000:597.871 - 0.378ms returns 0
T6820 000:598.627 JLINK_CORESIGHT_WriteAPDPReg(AP reg 0x00, 0x80000002)
T6820 000:598.942 - 0.314ms returns 0
T6820 000:598.961 JLINK_CORESIGHT_WriteAPDPReg(AP reg 0x01, 0x80011140)
T6820 000:599.212 - 0.251ms returns 0
T6820 000:599.230 JLINK_CORESIGHT_ReadAPDPReg(AP reg 0x03)
T6820 000:599.641   Value=0x00000002
T6820 000:599.688 - 0.457ms returns 0
T6820 000:599.704 JLINK_CORESIGHT_WriteAPDPReg(AP reg 0x00, 0x80000002)
T6820 000:599.952 - 0.249ms returns 0
T6820 000:599.971 JLINK_CORESIGHT_WriteAPDPReg(AP reg 0x01, 0x80011120)
T6820 000:600.249 - 0.278ms returns 0
T6820 000:600.268 JLINK_CORESIGHT_WriteAPDPReg(AP reg 0x03, 0x73010001)
T6820 000:600.515 - 0.247ms returns 0
T6820 000:600.535 JLINK_CORESIGHT_WriteAPDPReg(AP reg 0x00, 0x80000002)
T6820 000:600.831 - 0.295ms returns 0
T6820 000:600.849 JLINK_CORESIGHT_WriteAPDPReg(AP reg 0x01, 0x80011140)
T6820 000:601.075 - 0.225ms returns 0
T6820 000:601.094 JLINK_CORESIGHT_ReadAPDPReg(AP reg 0x03)
T6820 000:601.444   Value=0x00000002
T6820 000:601.470 - 0.376ms returns 0
T6820 000:601.487 JLINK_CORESIGHT_WriteAPDPReg(AP reg 0x00, 0x80000002)
T6820 000:601.764 - 0.277ms returns 0
T6820 000:601.784 JLINK_CORESIGHT_WriteAPDPReg(AP reg 0x01, 0x80011120)
T6820 000:602.062 - 0.278ms returns 0
T6820 000:602.081 JLINK_CORESIGHT_WriteAPDPReg(AP reg 0x03, 0x0000038C)
T6820 000:602.335 - 0.253ms returns 0
T6820 000:602.366 JLINK_CORESIGHT_WriteAPDPReg(AP reg 0x00, 0x80000002)
T6820 000:602.709 - 0.342ms returns 0
T6820 000:602.753 JLINK_CORESIGHT_WriteAPDPReg(AP reg 0x01, 0x80011140)
T6820 000:603.060 - 0.308ms returns 0
T6820 000:603.084 JLINK_CORESIGHT_ReadAPDPReg(AP reg 0x03)
T6820 000:603.526   Value=0x00000002
T6820 000:603.564 - 0.480ms returns 0
T6820 000:603.582 JLINK_CORESIGHT_ReadAPDPReg(AP reg 0x03)
T6820 000:603.902   Value=0x00000002
T6820 000:603.924 - 0.342ms returns 0
T6820 000:603.940 JLINK_CORESIGHT_ReadAPDPReg(AP reg 0x03)
T6820 000:604.327   Value=0x00000002
T6820 000:604.365 - 0.425ms returns 0
T6820 000:604.384 JLINK_CORESIGHT_ReadAPDPReg(AP reg 0x03)
T6820 000:604.697   Value=0x00000002
T6820 000:604.722 - 0.338ms returns 0
T6820 000:604.737 JLINK_CORESIGHT_ReadAPDPReg(AP reg 0x03)
T6820 000:605.081   Value=0x00000000
T6820 000:605.102 - 0.364ms returns 0
T6820 000:605.117 JLINK_CORESIGHT_WriteAPDPReg(AP reg 0x00, 0x80000002)
T6820 000:605.375 - 0.257ms returns 0
T6820 000:605.398 JLINK_CORESIGHT_WriteAPDPReg(AP reg 0x01, 0x80011130)
T6820 000:605.784 - 0.385ms returns 0
T6820 000:605.814 JLINK_CORESIGHT_ReadAPDPReg(AP reg 0x03)
T6820 000:606.470   Value=0x73020081
T6820 000:606.527 - 0.712ms returns 0
T6820 000:606.544 JLINK_CORESIGHT_WriteAPDPReg(AP reg 0x00, 0x80000002)
T6820 000:608.446 - 1.901ms returns 0
T6820 000:608.488 JLINK_CORESIGHT_WriteAPDPReg(AP reg 0x01, 0x80011140)
T6820 000:608.764 - 0.276ms returns 0
T6820 000:608.787 JLINK_CORESIGHT_ReadAPDPReg(AP reg 0x03)
T6820 000:609.136   Value=0x00000000
T6820 000:609.160 - 0.372ms returns 0
T6820 000:609.176 JLINK_CORESIGHT_WriteAPDPReg(AP reg 0x00, 0x80000002)
T6820 000:609.476 - 0.299ms returns 0
T6820 000:609.495 JLINK_CORESIGHT_WriteAPDPReg(AP reg 0x01, 0x80011130)
T6820 000:609.883 - 0.388ms returns 0
T6820 000:609.902 JLINK_CORESIGHT_ReadAPDPReg(AP reg 0x03)
T6820 000:610.368   Value=0x00038902
T6820 000:610.391 - 0.489ms returns 0
T6820 000:610.412 JLINK_CORESIGHT_WriteAPDPReg(AP reg 0x00, 0x80000002)
T6820 000:610.687 - 0.274ms returns 0
T6820 000:610.723 JLINK_CORESIGHT_WriteAPDPReg(AP reg 0x01, 0x80011140)
T6820 000:611.008 - 0.284ms returns 0
T6820 000:611.028 JLINK_CORESIGHT_ReadAPDPReg(AP reg 0x03)
T6820 000:611.323   Value=0x00000002
T6820 000:611.348 - 0.320ms returns 0
T6820 000:611.364 JLINK_CORESIGHT_WriteAPDPReg(AP reg 0x00, 0x80000002)
T6820 000:611.634 - 0.269ms returns 0
T6820 000:611.654 JLINK_CORESIGHT_WriteAPDPReg(AP reg 0x01, 0x80011120)
T6820 000:611.906 - 0.251ms returns 0
T6820 000:611.935 JLINK_CORESIGHT_WriteAPDPReg(AP reg 0x03, 0x75010001)
T6820 000:613.336 - 1.401ms returns 0
T6820 000:613.363 JLINK_CORESIGHT_WriteAPDPReg(AP reg 0x00, 0x80000002)
T6820 000:613.647 - 0.284ms returns 0
T6820 000:613.668 JLINK_CORESIGHT_WriteAPDPReg(AP reg 0x01, 0x80011140)
T6820 000:614.045 - 0.377ms returns 0
T6820 000:614.066 JLINK_CORESIGHT_ReadAPDPReg(AP reg 0x03)
T6820 000:614.671   Value=0x00000002
T6820 000:614.697 - 0.631ms returns 0
T6820 000:614.713 JLINK_CORESIGHT_WriteAPDPReg(AP reg 0x00, 0x80000002)
T6820 000:615.198 - 0.484ms returns 0
T6820 000:615.219 JLINK_CORESIGHT_WriteAPDPReg(AP reg 0x01, 0x80011120)
T6820 000:615.461 - 0.242ms returns 0
T6820 000:615.483 JLINK_CORESIGHT_WriteAPDPReg(AP reg 0x03, 0x0000038A)
T6820 000:615.807 - 0.324ms returns 0
T6820 000:615.854 JLINK_CORESIGHT_WriteAPDPReg(AP reg 0x00, 0x80000002)
T6820 000:616.080 - 0.226ms returns 0
T6820 000:616.105 JLINK_CORESIGHT_WriteAPDPReg(AP reg 0x01, 0x80011140)
T6820 000:616.389 - 0.283ms returns 0
T6820 000:616.412 JLINK_CORESIGHT_ReadAPDPReg(AP reg 0x03)
T6820 000:616.832   Value=0x00000002
T6820 000:616.856 - 0.445ms returns 0
T6820 000:616.873 JLINK_CORESIGHT_ReadAPDPReg(AP reg 0x03)
T6820 000:617.173   Value=0x00000002
T6820 000:617.213 - 0.340ms returns 0
T6820 000:617.229 JLINK_CORESIGHT_ReadAPDPReg(AP reg 0x03)
T6820 000:617.591   Value=0x00000002
T6820 000:617.626 - 0.397ms returns 0
T6820 000:617.642 JLINK_CORESIGHT_ReadAPDPReg(AP reg 0x03)
T6820 000:618.029   Value=0x00000002
T6820 000:618.053 - 0.411ms returns 0
T6820 000:618.070 JLINK_CORESIGHT_ReadAPDPReg(AP reg 0x03)
T6820 000:618.431   Value=0x00000002
T6820 000:618.458 - 0.387ms returns 0
T6820 000:618.474 JLINK_CORESIGHT_ReadAPDPReg(AP reg 0x03)
T6820 000:618.785   Value=0x00000000
T6820 000:618.811 - 0.336ms returns 0
T6820 000:618.827 JLINK_CORESIGHT_WriteAPDPReg(AP reg 0x00, 0x80000002)
T6820 000:619.282 - 0.453ms returns 0
T6820 000:619.338 JLINK_CORESIGHT_WriteAPDPReg(AP reg 0x01, 0x80011130)
T6820 000:619.678 - 0.340ms returns 0
T6820 000:619.706 JLINK_CORESIGHT_ReadAPDPReg(AP reg 0x03)
T6820 000:620.011   Value=0x75020081
T6820 000:620.032 - 0.326ms returns 0
T6820 000:620.049 JLINK_CORESIGHT_WriteAPDPReg(AP reg 0x00, 0x80000002)
T6820 000:620.326 - 0.277ms returns 0
T6820 000:620.346 JLINK_CORESIGHT_WriteAPDPReg(AP reg 0x01, 0x80011140)
T6820 000:620.642 - 0.297ms returns 0
T6820 000:620.663 JLINK_CORESIGHT_ReadAPDPReg(AP reg 0x03)
T6820 000:620.928   Value=0x00000000
T6820 000:620.949 - 0.286ms returns 0
T6820 000:620.965 JLINK_CORESIGHT_WriteAPDPReg(AP reg 0x00, 0x80000002)
T6820 000:621.247 - 0.282ms returns 0
T6820 000:621.265 JLINK_CORESIGHT_WriteAPDPReg(AP reg 0x01, 0x80011130)
T6820 000:621.641 - 0.375ms returns 0
T6820 000:621.668 JLINK_CORESIGHT_ReadAPDPReg(AP reg 0x03)
T6820 000:622.192   Value=0x00038702
T6820 000:622.233 - 0.565ms returns 0
T6820 000:622.264 JLINK_CORESIGHT_WriteAPDPReg(AP reg 0x00, 0x80000002)
T6820 000:622.535 - 0.271ms returns 0
T6820 000:622.557 JLINK_CORESIGHT_WriteAPDPReg(AP reg 0x01, 0x80011140)
T6820 000:623.007 - 0.449ms returns 0
T6820 000:623.027 JLINK_CORESIGHT_ReadAPDPReg(AP reg 0x03)
T6820 000:623.403   Value=0x00000002
T6820 000:623.443 - 0.415ms returns 0
T6820 000:623.466 JLINK_CORESIGHT_WriteAPDPReg(AP reg 0x00, 0x80000002)
T6820 000:623.774 - 0.309ms returns 0
T6820 000:623.800 JLINK_CORESIGHT_WriteAPDPReg(AP reg 0x01, 0x80011120)
T6820 000:624.078 - 0.278ms returns 0
T6820 000:624.100 JLINK_CORESIGHT_WriteAPDPReg(AP reg 0x03, 0x4F010001)
T6820 000:624.327 - 0.227ms returns 0
T6820 000:624.348 JLINK_CORESIGHT_WriteAPDPReg(AP reg 0x00, 0x80000002)
T6820 000:624.634 - 0.286ms returns 0
T6820 000:624.654 JLINK_CORESIGHT_WriteAPDPReg(AP reg 0x01, 0x80011140)
T6820 000:624.926 - 0.272ms returns 0
T6820 000:624.947 JLINK_CORESIGHT_ReadAPDPReg(AP reg 0x03)
T6820 000:625.257   Value=0x00000002
T6820 000:625.300 - 0.352ms returns 0
T6820 000:625.318 JLINK_CORESIGHT_WriteAPDPReg(AP reg 0x00, 0x80000002)
T6820 000:625.640 - 0.322ms returns 0
T6820 000:625.684 JLINK_CORESIGHT_WriteAPDPReg(AP reg 0x01, 0x80011120)
T6820 000:625.967 - 0.282ms returns 0
T6820 000:625.988 JLINK_CORESIGHT_WriteAPDPReg(AP reg 0x03, 0x000003B0)
T6820 000:626.244 - 0.256ms returns 0
T6820 000:626.267 JLINK_CORESIGHT_WriteAPDPReg(AP reg 0x00, 0x80000002)
T6820 000:626.540 - 0.273ms returns 0
T6820 000:626.563 JLINK_CORESIGHT_WriteAPDPReg(AP reg 0x01, 0x80011140)
T6820 000:626.795 - 0.231ms returns 0
T6820 000:626.818 JLINK_CORESIGHT_ReadAPDPReg(AP reg 0x03)
T6820 000:627.217   Value=0x00000002
T6820 000:627.242 - 0.424ms returns 0
T6820 000:627.260 JLINK_CORESIGHT_ReadAPDPReg(AP reg 0x03)
T6820 000:627.694   Value=0x00000002
T6820 000:627.718 - 0.457ms returns 0
T6820 000:627.737 JLINK_CORESIGHT_ReadAPDPReg(AP reg 0x03)
T6820 000:628.127   Value=0x00000002
T6820 000:628.150 - 0.412ms returns 0
T6820 000:628.179 JLINK_CORESIGHT_ReadAPDPReg(AP reg 0x03)
T6820 000:628.490   Value=0x00000000
T6820 000:628.548 - 0.369ms returns 0
T6820 000:628.568 JLINK_CORESIGHT_WriteAPDPReg(AP reg 0x00, 0x80000002)
T6820 000:628.833 - 0.265ms returns 0
T6820 000:628.856 JLINK_CORESIGHT_WriteAPDPReg(AP reg 0x01, 0x80011130)
T6820 000:629.140 - 0.284ms returns 0
T6820 000:629.163 JLINK_CORESIGHT_ReadAPDPReg(AP reg 0x03)
T6820 000:629.490   Value=0x4F0B0081
T6820 000:629.538 - 0.374ms returns 0
T6820 000:629.556 JLINK_CORESIGHT_WriteAPDPReg(AP reg 0x00, 0x80000002)
T6820 000:629.836 - 0.279ms returns 0
T6820 000:629.859 JLINK_CORESIGHT_WriteAPDPReg(AP reg 0x01, 0x80011140)
T6820 000:630.103 - 0.243ms returns 0
T6820 000:630.127 JLINK_CORESIGHT_ReadAPDPReg(AP reg 0x03)
T6820 000:630.488   Value=0x00000000
T6820 000:630.549 - 0.422ms returns 0
T6820 000:630.573 JLINK_CORESIGHT_WriteAPDPReg(AP reg 0x00, 0x80000002)
T6820 000:630.950 - 0.376ms returns 0
T6820 000:631.041 JLINK_CORESIGHT_WriteAPDPReg(AP reg 0x01, 0x80011130)
T6820 000:631.517 - 0.476ms returns 0
T6820 000:631.548 JLINK_CORESIGHT_ReadAPDPReg(AP reg 0x03)
T6820 000:631.863   Value=0xE03F0000
T6820 000:631.885 - 0.336ms returns 0
T6820 000:631.903 JLINK_CORESIGHT_WriteAPDPReg(AP reg 0x00, 0x80000002)
T6820 000:632.145 - 0.241ms returns 0
T6820 000:632.170 JLINK_CORESIGHT_WriteAPDPReg(AP reg 0x01, 0x80011140)
T6820 000:632.601 - 0.430ms returns 0
T6820 000:632.648 JLINK_CORESIGHT_ReadAPDPReg(AP reg 0x03)
T6820 000:633.273   Value=0x00000000
T6820 000:633.308 - 0.660ms returns 0
T6820 000:633.331 JLINK_CORESIGHT_WriteAPDPReg(AP reg 0x00, 0x80000002)
T6820 000:633.646 - 0.314ms returns 0
T6820 000:634.365 JLINK_CORESIGHT_WriteAPDPReg(AP reg 0x01, 0x80011130)
T6820 000:636.320 - 1.954ms returns 0
T6820 000:636.369 JLINK_CORESIGHT_ReadAPDPReg(AP reg 0x03)
T6820 000:636.865   Value=0x00003F00
T6820 000:636.886 - 0.517ms returns 0
T6820 000:636.903 JLINK_CORESIGHT_WriteAPDPReg(AP reg 0x00, 0x80000002)
T6820 000:637.179 - 0.276ms returns 0
T6820 000:637.197 JLINK_CORESIGHT_WriteAPDPReg(AP reg 0x01, 0x80011140)
T6820 000:637.455 - 0.258ms returns 0
T6820 000:637.481 JLINK_CORESIGHT_ReadAPDPReg(AP reg 0x03)
T6820 000:637.860   Value=0x00000000
T6820 000:637.882 - 0.401ms returns 0
T6820 000:637.897 JLINK_CORESIGHT_WriteAPDPReg(AP reg 0x00, 0x80000002)
T6820 000:638.641 - 0.743ms returns 0
T6820 000:638.660 JLINK_CORESIGHT_WriteAPDPReg(AP reg 0x01, 0x80011130)
T6820 000:639.155 - 0.494ms returns 0
T6820 000:639.175 JLINK_CORESIGHT_ReadAPDPReg(AP reg 0x03)
T6820 000:639.767   Value=0x03480000
T6820 000:639.796 - 0.621ms returns 0
T6820 000:639.885 JLINK_CORESIGHT_WriteAPDPReg(AP reg 0x00, 0x80000002)
T6820 000:640.276 - 0.391ms returns 0
T6820 000:640.296 JLINK_CORESIGHT_WriteAPDPReg(AP reg 0x01, 0x80011140)
T6820 000:640.728 - 0.432ms returns 0
T6820 000:640.749 JLINK_CORESIGHT_ReadAPDPReg(AP reg 0x03)
T6820 000:641.158   Value=0x00000002
T6820 000:641.179 - 0.430ms returns 0
T6820 000:641.195 JLINK_CORESIGHT_WriteAPDPReg(AP reg 0x00, 0x80000002)
T6820 000:643.347 - 2.150ms returns 0
T6820 000:643.386 JLINK_CORESIGHT_WriteAPDPReg(AP reg 0x01, 0x80011120)
T6820 000:643.803 - 0.417ms returns 0
T6820 000:643.823 JLINK_CORESIGHT_WriteAPDPReg(AP reg 0x03, 0x2C010001)
T6820 000:644.206 - 0.383ms returns 0
T6820 000:644.225 JLINK_CORESIGHT_WriteAPDPReg(AP reg 0x00, 0x80000002)
T6820 000:644.545 - 0.320ms returns 0
T6820 000:644.572 JLINK_CORESIGHT_WriteAPDPReg(AP reg 0x01, 0x80011140)
T6820 000:644.812 - 0.241ms returns 0
T6820 000:644.832 JLINK_CORESIGHT_ReadAPDPReg(AP reg 0x03)
T6820 000:645.273   Value=0x00000002
T6820 000:645.294 - 0.462ms returns 0
T6820 000:645.310 JLINK_CORESIGHT_WriteAPDPReg(AP reg 0x00, 0x80000002)
T6820 000:645.725 - 0.415ms returns 0
T6820 000:645.747 JLINK_CORESIGHT_WriteAPDPReg(AP reg 0x01, 0x80011120)
T6820 000:647.394 - 1.644ms returns 0
T6820 000:647.428 JLINK_CORESIGHT_WriteAPDPReg(AP reg 0x03, 0x000003D3)
T6820 000:647.863 - 0.435ms returns 0
T6820 000:647.883 JLINK_CORESIGHT_WriteAPDPReg(AP reg 0x00, 0x80000002)
T6820 000:648.243 - 0.360ms returns 0
T6820 000:648.270 JLINK_CORESIGHT_WriteAPDPReg(AP reg 0x01, 0x80011140)
T6820 000:650.392 - 2.120ms returns 0
T6820 000:650.420 JLINK_CORESIGHT_ReadAPDPReg(AP reg 0x03)
T6820 000:650.790   Value=0x00000000
T6820 000:650.811 - 0.391ms returns 0
T6820 000:650.826 JLINK_CORESIGHT_WriteAPDPReg(AP reg 0x00, 0x80000002)
T6820 000:651.177 - 0.349ms returns 0
T6820 000:651.195 JLINK_CORESIGHT_WriteAPDPReg(AP reg 0x01, 0x80011130)
T6820 000:651.589 - 0.393ms returns 0
T6820 000:651.606 JLINK_CORESIGHT_ReadAPDPReg(AP reg 0x03)
T6820 000:652.025   Value=0x2C020081
T6820 000:652.045 - 0.439ms returns 0
T6820 000:652.060 JLINK_CORESIGHT_WriteAPDPReg(AP reg 0x00, 0x80000002)
T6820 000:652.455 - 0.395ms returns 0
T6820 000:652.475 JLINK_CORESIGHT_WriteAPDPReg(AP reg 0x01, 0x80011140)
T6820 000:652.850 - 0.375ms returns 0
T6820 000:652.876 JLINK_CORESIGHT_ReadAPDPReg(AP reg 0x03)
T6820 000:653.404   Value=0x00000000
T6820 000:653.457 - 0.581ms returns 0
T6820 000:653.474 JLINK_CORESIGHT_WriteAPDPReg(AP reg 0x00, 0x80000002)
T6820 000:655.352 - 1.874ms returns 0
T6820 000:655.392 JLINK_CORESIGHT_WriteAPDPReg(AP reg 0x01, 0x80011130)
T6820 000:655.799 - 0.406ms returns 0
T6820 000:655.816 JLINK_CORESIGHT_ReadAPDPReg(AP reg 0x03)
T6820 000:656.405   Value=0x0003CE04
T6820 000:656.425 - 0.608ms returns 0
T6820 000:656.446 JLINK_CORESIGHT_WriteAPDPReg(AP reg 0x00, 0x80000002)
T6820 000:656.961 - 0.515ms returns 0
T6820 000:656.978 JLINK_CORESIGHT_WriteAPDPReg(AP reg 0x01, 0x80011140)
T6820 000:657.492 - 0.514ms returns 0
T6820 000:657.511 JLINK_CORESIGHT_ReadAPDPReg(AP reg 0x03)
T6820 000:658.045   Value=0x00000002
T6820 000:658.064 - 0.552ms returns 0
T6820 000:658.079 JLINK_CORESIGHT_WriteAPDPReg(AP reg 0x00, 0x80000002)
T6820 000:658.573 - 0.494ms returns 0
T6820 000:658.591 JLINK_CORESIGHT_WriteAPDPReg(AP reg 0x01, 0x80011120)
T6820 000:659.062 - 0.471ms returns 0
T6820 000:659.078 JLINK_CORESIGHT_WriteAPDPReg(AP reg 0x03, 0x73010001)
T6820 000:659.565 - 0.487ms returns 0
T6820 000:659.611 JLINK_CORESIGHT_WriteAPDPReg(AP reg 0x00, 0x80000002)
T6820 000:659.939 - 0.327ms returns 0
T6820 000:659.981 JLINK_CORESIGHT_WriteAPDPReg(AP reg 0x01, 0x80011140)
T6820 000:660.527 - 0.546ms returns 0
T6820 000:660.545 JLINK_CORESIGHT_ReadAPDPReg(AP reg 0x03)
T6820 000:661.053   Value=0x00000002
T6820 000:661.072 - 0.526ms returns 0
T6820 000:661.088 JLINK_CORESIGHT_WriteAPDPReg(AP reg 0x00, 0x80000002)
T6820 000:661.460 - 0.372ms returns 0
T6820 000:661.479 JLINK_CORESIGHT_WriteAPDPReg(AP reg 0x01, 0x80011120)
T6820 000:662.033 - 0.554ms returns 0
T6820 000:662.071 JLINK_CORESIGHT_WriteAPDPReg(AP reg 0x03, 0x0000038C)
T6820 000:662.613 - 0.542ms returns 0
T6820 000:662.649 JLINK_CORESIGHT_WriteAPDPReg(AP reg 0x00, 0x80000002)
T6820 000:663.110 - 0.461ms returns 0
T6820 000:663.145 JLINK_CORESIGHT_WriteAPDPReg(AP reg 0x01, 0x80011140)
T6820 000:663.550 - 0.405ms returns 0
T6820 000:663.586 JLINK_CORESIGHT_ReadAPDPReg(AP reg 0x03)
T6820 000:664.222   Value=0x00000002
T6820 000:664.254 - 0.667ms returns 0
T6820 000:664.275 JLINK_CORESIGHT_ReadAPDPReg(AP reg 0x03)
T6820 000:664.868   Value=0x00000002
T6820 000:664.900 - 0.625ms returns 0
T6820 000:664.921 JLINK_CORESIGHT_ReadAPDPReg(AP reg 0x03)
T6820 000:665.581   Value=0x00000002
T6820 000:665.614 - 0.692ms returns 0
T6820 000:665.635 JLINK_CORESIGHT_ReadAPDPReg(AP reg 0x03)
T6820 000:666.152   Value=0x00000002
T6820 000:666.185 - 0.549ms returns 0
T6820 000:666.206 JLINK_CORESIGHT_ReadAPDPReg(AP reg 0x03)
T6820 000:666.783   Value=0x00000000
T6820 000:666.815 - 0.609ms returns 0
T6820 000:666.836 JLINK_CORESIGHT_WriteAPDPReg(AP reg 0x00, 0x80000002)
T6820 000:667.315 - 0.478ms returns 0
T6820 000:667.353 JLINK_CORESIGHT_WriteAPDPReg(AP reg 0x01, 0x80011130)
T6820 000:667.900 - 0.547ms returns 0
T6820 000:667.938 JLINK_CORESIGHT_ReadAPDPReg(AP reg 0x03)
T6820 000:668.331   Value=0x73020081
T6820 000:668.366 - 0.427ms returns 0
T6820 000:668.393 JLINK_CORESIGHT_WriteAPDPReg(AP reg 0x00, 0x80000002)
T6820 000:668.797 - 0.404ms returns 0
T6820 000:668.846 JLINK_CORESIGHT_WriteAPDPReg(AP reg 0x01, 0x80011140)
T6820 000:669.299 - 0.452ms returns 0
T6820 000:669.339 JLINK_CORESIGHT_ReadAPDPReg(AP reg 0x03)
T6820 000:671.350   Value=0x00000000
T6820 000:671.428 - 2.089ms returns 0
T6820 000:671.454 JLINK_CORESIGHT_WriteAPDPReg(AP reg 0x00, 0x80000002)
T6820 000:671.842 - 0.388ms returns 0
T6820 000:671.877 JLINK_CORESIGHT_WriteAPDPReg(AP reg 0x01, 0x80011130)
T6820 000:672.285 - 0.408ms returns 0
T6820 000:672.329 JLINK_CORESIGHT_ReadAPDPReg(AP reg 0x03)
T6820 000:672.716   Value=0x00038902
T6820 000:672.749 - 0.419ms returns 0
T6820 000:673.521 JLINK_CORESIGHT_WriteAPDPReg(AP reg 0x00, 0x80000002)
T6820 000:674.037 - 0.516ms returns 0
T6820 000:674.068 JLINK_CORESIGHT_WriteAPDPReg(AP reg 0x01, 0x80011140)
T6820 000:674.588 - 0.519ms returns 0
T6820 000:674.620 JLINK_CORESIGHT_ReadAPDPReg(AP reg 0x03)
T6820 000:674.958   Value=0x00000002
T6820 000:675.023 - 0.403ms returns 0
T6820 000:675.041 JLINK_CORESIGHT_WriteAPDPReg(AP reg 0x00, 0x80000002)
T6820 000:675.459 - 0.417ms returns 0
T6820 000:675.490 JLINK_CORESIGHT_WriteAPDPReg(AP reg 0x01, 0x80011120)
T6820 000:675.943 - 0.452ms returns 0
T6820 000:675.989 JLINK_CORESIGHT_WriteAPDPReg(AP reg 0x03, 0x75010001)
T6820 000:676.411 - 0.421ms returns 0
T6820 000:676.444 JLINK_CORESIGHT_WriteAPDPReg(AP reg 0x00, 0x80000002)
T6820 000:676.782 - 0.338ms returns 0
T6820 000:676.819 JLINK_CORESIGHT_WriteAPDPReg(AP reg 0x01, 0x80011140)
T6820 000:677.193 - 0.373ms returns 0
T6820 000:677.224 JLINK_CORESIGHT_ReadAPDPReg(AP reg 0x03)
T6820 000:677.572   Value=0x00000002
T6820 000:677.605 - 0.381ms returns 0
T6820 000:677.622 JLINK_CORESIGHT_WriteAPDPReg(AP reg 0x00, 0x80000002)
T6820 000:677.888 - 0.265ms returns 0
T6820 000:677.925 JLINK_CORESIGHT_WriteAPDPReg(AP reg 0x01, 0x80011120)
T6820 000:678.253 - 0.327ms returns 0
T6820 000:678.285 JLINK_CORESIGHT_WriteAPDPReg(AP reg 0x03, 0x0000038A)
T6820 000:678.897 - 0.612ms returns 0
T6820 000:678.929 JLINK_CORESIGHT_WriteAPDPReg(AP reg 0x00, 0x80000002)
T6820 000:679.342 - 0.413ms returns 0
T6820 000:679.373 JLINK_CORESIGHT_WriteAPDPReg(AP reg 0x01, 0x80011140)
T6820 000:679.881 - 0.508ms returns 0
T6820 000:679.913 JLINK_CORESIGHT_ReadAPDPReg(AP reg 0x03)
T6820 000:680.469   Value=0x00000002
T6820 000:680.502 - 0.588ms returns 0
T6820 000:680.519 JLINK_CORESIGHT_ReadAPDPReg(AP reg 0x03)
T6820 000:681.036   Value=0x00000002
T6820 000:681.069 - 0.550ms returns 0
T6820 000:681.085 JLINK_CORESIGHT_ReadAPDPReg(AP reg 0x03)
T6820 000:681.645   Value=0x00000002
T6820 000:681.677 - 0.592ms returns 0
T6820 000:681.694 JLINK_CORESIGHT_ReadAPDPReg(AP reg 0x03)
T6820 000:682.261   Value=0x00000002
T6820 000:682.293 - 0.599ms returns 0
T6820 000:682.312 JLINK_CORESIGHT_ReadAPDPReg(AP reg 0x03)
T6820 000:682.799   Value=0x00000000
T6820 000:682.832 - 0.519ms returns 0
T6820 000:682.849 JLINK_CORESIGHT_WriteAPDPReg(AP reg 0x00, 0x80000002)
T6820 000:683.354 - 0.505ms returns 0
T6820 000:683.387 JLINK_CORESIGHT_WriteAPDPReg(AP reg 0x01, 0x80011130)
T6820 000:683.687 - 0.300ms returns 0
T6820 000:683.718 JLINK_CORESIGHT_ReadAPDPReg(AP reg 0x03)
T6820 000:684.214   Value=0x75020081
T6820 000:684.247 - 0.528ms returns 0
T6820 000:684.263 JLINK_CORESIGHT_WriteAPDPReg(AP reg 0x00, 0x80000002)
T6820 000:684.697 - 0.434ms returns 0
T6820 000:684.729 JLINK_CORESIGHT_WriteAPDPReg(AP reg 0x01, 0x80011140)
T6820 000:685.074 - 0.345ms returns 0
T6820 000:685.106 JLINK_CORESIGHT_ReadAPDPReg(AP reg 0x03)
T6820 000:685.573   Value=0x00000000
T6820 000:685.606 - 0.500ms returns 0
T6820 000:685.623 JLINK_CORESIGHT_WriteAPDPReg(AP reg 0x00, 0x80000002)
T6820 000:685.969 - 0.345ms returns 0
T6820 000:686.000 JLINK_CORESIGHT_WriteAPDPReg(AP reg 0x01, 0x80011130)
T6820 000:686.289 - 0.288ms returns 0
T6820 000:686.323 JLINK_CORESIGHT_ReadAPDPReg(AP reg 0x03)
T6820 000:686.757   Value=0x00038702
T6820 000:686.790 - 0.466ms returns 0
T6820 000:686.822 JLINK_CORESIGHT_WriteAPDPReg(AP reg 0x00, 0x80000002)
T6820 000:687.219 - 0.396ms returns 0
T6820 000:687.250 JLINK_CORESIGHT_WriteAPDPReg(AP reg 0x01, 0x80011140)
T6820 000:687.744 - 0.493ms returns 0
T6820 000:687.776 JLINK_CORESIGHT_ReadAPDPReg(AP reg 0x03)
T6820 000:688.266   Value=0x00000002
T6820 000:688.298 - 0.522ms returns 0
T6820 000:688.315 JLINK_CORESIGHT_WriteAPDPReg(AP reg 0x00, 0x80000002)
T6820 000:688.919 - 0.603ms returns 0
T6820 000:688.951 JLINK_CORESIGHT_WriteAPDPReg(AP reg 0x01, 0x80011120)
T6820 000:689.257 - 0.305ms returns 0
T6820 000:689.289 JLINK_CORESIGHT_WriteAPDPReg(AP reg 0x03, 0x4E0B0001)
T6820 000:689.766 - 0.477ms returns 0
T6820 000:689.797 JLINK_CORESIGHT_WriteAPDPReg(AP reg 0x00, 0x80000002)
T6820 000:690.305 - 0.508ms returns 0
T6820 000:690.336 JLINK_CORESIGHT_WriteAPDPReg(AP reg 0x01, 0x80011140)
T6820 000:690.897 - 0.561ms returns 0
T6820 000:690.930 JLINK_CORESIGHT_ReadAPDPReg(AP reg 0x03)
T6820 000:691.575   Value=0x00000002
T6820 000:691.614 - 0.684ms returns 0
T6820 000:691.635 JLINK_CORESIGHT_WriteAPDPReg(AP reg 0x00, 0x80000002)
T6820 000:691.978 - 0.342ms returns 0
T6820 000:692.026 JLINK_CORESIGHT_WriteAPDPReg(AP reg 0x01, 0x80011120)
T6820 000:692.427 - 0.400ms returns 0
T6820 000:692.472 JLINK_CORESIGHT_WriteAPDPReg(AP reg 0x03, 0xE0070000)
T6820 000:692.834 - 0.361ms returns 0
T6820 000:692.888 JLINK_CORESIGHT_WriteAPDPReg(AP reg 0x00, 0x80000002)
T6820 000:693.459 - 0.571ms returns 0
T6820 000:693.491 JLINK_CORESIGHT_WriteAPDPReg(AP reg 0x01, 0x80011140)
T6820 000:693.991 - 0.499ms returns 0
T6820 000:694.022 JLINK_CORESIGHT_ReadAPDPReg(AP reg 0x03)
T6820 000:694.563   Value=0x00000002
T6820 000:694.596 - 0.573ms returns 0
T6820 000:694.612 JLINK_CORESIGHT_WriteAPDPReg(AP reg 0x00, 0x80000002)
T6820 000:695.115 - 0.503ms returns 0
T6820 000:695.146 JLINK_CORESIGHT_WriteAPDPReg(AP reg 0x01, 0x80011120)
T6820 000:695.612 - 0.466ms returns 0
T6820 000:695.643 JLINK_CORESIGHT_WriteAPDPReg(AP reg 0x03, 0x00000C00)
T6820 000:696.101 - 0.457ms returns 0
T6820 000:696.132 JLINK_CORESIGHT_WriteAPDPReg(AP reg 0x00, 0x80000002)
T6820 000:696.592 - 0.460ms returns 0
T6820 000:696.623 JLINK_CORESIGHT_WriteAPDPReg(AP reg 0x01, 0x80011140)
T6820 000:697.163 - 0.539ms returns 0
T6820 000:697.194 JLINK_CORESIGHT_ReadAPDPReg(AP reg 0x03)
T6820 000:697.708   Value=0x00000002
T6820 000:697.740 - 0.546ms returns 0
T6820 000:697.757 JLINK_CORESIGHT_WriteAPDPReg(AP reg 0x00, 0x80000002)
T6820 000:698.294 - 0.537ms returns 0
T6820 000:698.325 JLINK_CORESIGHT_WriteAPDPReg(AP reg 0x01, 0x80011120)
T6820 000:698.802 - 0.476ms returns 0
T6820 000:698.838 JLINK_CORESIGHT_WriteAPDPReg(AP reg 0x03, 0x03B40000)
T6820 000:699.469 - 0.631ms returns 0
T6820 000:699.505 JLINK_CORESIGHT_WriteAPDPReg(AP reg 0x00, 0x80000002)
T6820 000:699.913 - 0.408ms returns 0
T6820 000:699.949 JLINK_CORESIGHT_WriteAPDPReg(AP reg 0x01, 0x80011140)
T6820 000:700.500 - 0.551ms returns 0
T6820 000:700.535 JLINK_CORESIGHT_ReadAPDPReg(AP reg 0x03)
T6820 000:701.021   Value=0x00000002
T6820 000:701.069 - 0.534ms returns 0
T6820 000:701.099 JLINK_CORESIGHT_ReadAPDPReg(AP reg 0x03)
T6820 000:701.535   Value=0x00000002
T6820 000:701.568 - 0.469ms returns 0
T6820 000:701.590 JLINK_CORESIGHT_ReadAPDPReg(AP reg 0x03)
T6820 000:702.072   Value=0x00000002
T6820 000:702.104 - 0.515ms returns 0
T6820 000:702.125 JLINK_CORESIGHT_ReadAPDPReg(AP reg 0x03)
T6820 000:702.614   Value=0x00000002
T6820 000:702.648 - 0.522ms returns 0
T6820 000:702.669 JLINK_CORESIGHT_ReadAPDPReg(AP reg 0x03)
T6820 000:703.118   Value=0x00000002
T6820 000:703.153 - 0.484ms returns 0
T6820 000:703.175 JLINK_CORESIGHT_ReadAPDPReg(AP reg 0x03)
T6820 000:703.516   Value=0x00000002
T6820 000:703.548 - 0.373ms returns 0
T6820 000:703.568 JLINK_CORESIGHT_ReadAPDPReg(AP reg 0x03)
T6820 000:704.037   Value=0x00000002
T6820 000:704.069 - 0.501ms returns 0
T6820 000:704.090 JLINK_CORESIGHT_ReadAPDPReg(AP reg 0x03)
T6820 000:704.736   Value=0x00000002
T6820 000:704.770 - 0.679ms returns 0
T6820 000:704.800 JLINK_CORESIGHT_ReadAPDPReg(AP reg 0x03)
T6820 000:705.305   Value=0x00000002
T6820 000:705.338 - 0.538ms returns 0
T6820 000:705.362 JLINK_CORESIGHT_ReadAPDPReg(AP reg 0x03)
T6820 000:705.899   Value=0x00000002
T6820 000:705.934 - 0.571ms returns 0
T6820 000:705.955 JLINK_CORESIGHT_ReadAPDPReg(AP reg 0x03)
T6820 000:706.402   Value=0x00000002
T6820 000:706.435 - 0.479ms returns 0
T6820 000:706.455 JLINK_CORESIGHT_ReadAPDPReg(AP reg 0x03)
T6820 000:707.037   Value=0x00000002
T6820 000:707.071 - 0.616ms returns 0
T6820 000:707.093 JLINK_CORESIGHT_ReadAPDPReg(AP reg 0x03)
T6820 000:707.596   Value=0x00000002
T6820 000:707.629 - 0.535ms returns 0
T6820 000:707.650 JLINK_CORESIGHT_ReadAPDPReg(AP reg 0x03)
T6820 000:708.203   Value=0x00000002
T6820 000:708.236 - 0.585ms returns 0
T6820 000:708.257 JLINK_CORESIGHT_ReadAPDPReg(AP reg 0x03)
T6820 000:708.556   Value=0x00000002
T6820 000:708.582 - 0.325ms returns 0
T6820 000:708.610 JLINK_CORESIGHT_ReadAPDPReg(AP reg 0x03)
T6820 000:709.098   Value=0x00000002
T6820 000:709.132 - 0.521ms returns 0
T6820 000:709.153 JLINK_CORESIGHT_ReadAPDPReg(AP reg 0x03)
T6820 000:709.481   Value=0x00000002
T6820 000:709.514 - 0.361ms returns 0
T6820 000:709.536 JLINK_CORESIGHT_ReadAPDPReg(AP reg 0x03)
T6820 000:709.857   Value=0x00000002
T6820 000:709.889 - 0.352ms returns 0
T6820 000:709.910 JLINK_CORESIGHT_ReadAPDPReg(AP reg 0x03)
T6820 000:710.396   Value=0x00000002
T6820 000:710.429 - 0.519ms returns 0
T6820 000:710.451 JLINK_CORESIGHT_ReadAPDPReg(AP reg 0x03)
T6820 000:710.878   Value=0x00000002
T6820 000:710.910 - 0.459ms returns 0
T6820 000:710.932 JLINK_CORESIGHT_ReadAPDPReg(AP reg 0x03)
T6820 000:711.394   Value=0x00000002
T6820 000:711.426 - 0.494ms returns 0
T6820 000:711.448 JLINK_CORESIGHT_ReadAPDPReg(AP reg 0x03)
T6820 000:711.936   Value=0x00000002
T6820 000:711.968 - 0.520ms returns 0
T6820 000:711.989 JLINK_CORESIGHT_ReadAPDPReg(AP reg 0x03)
T6820 000:712.337   Value=0x00000002
T6820 000:712.392 - 0.403ms returns 0
T6820 000:712.413 JLINK_CORESIGHT_ReadAPDPReg(AP reg 0x03)
T6820 000:712.945   Value=0x00000002
T6820 000:712.977 - 0.564ms returns 0
T6820 000:712.998 JLINK_CORESIGHT_ReadAPDPReg(AP reg 0x03)
T6820 000:713.538   Value=0x00000002
T6820 000:713.570 - 0.572ms returns 0
T6820 000:713.592 JLINK_CORESIGHT_ReadAPDPReg(AP reg 0x03)
T6820 000:714.092   Value=0x00000002
T6820 000:714.124 - 0.532ms returns 0
T6820 000:714.145 JLINK_CORESIGHT_ReadAPDPReg(AP reg 0x03)
T6820 000:714.785   Value=0x00000002
T6820 000:714.818 - 0.672ms returns 0
T6820 000:714.839 JLINK_CORESIGHT_ReadAPDPReg(AP reg 0x03)
T6820 000:715.346   Value=0x00000002
T6820 000:715.382 - 0.543ms returns 0
T6820 000:715.403 JLINK_CORESIGHT_ReadAPDPReg(AP reg 0x03)
T6820 000:716.013   Value=0x00000002
T6820 000:716.046 - 0.642ms returns 0
T6820 000:716.067 JLINK_CORESIGHT_ReadAPDPReg(AP reg 0x03)
T6820 000:716.552   Value=0x00000002
T6820 000:716.585 - 0.518ms returns 0
T6820 000:716.611 JLINK_CORESIGHT_ReadAPDPReg(AP reg 0x03)
T6820 000:717.192   Value=0x00000000
T6820 000:717.225 - 0.614ms returns 0
T6820 000:717.260 JLINK_CORESIGHT_WriteAPDPReg(AP reg 0x00, 0x80000002)
T6820 000:717.575 - 0.314ms returns 0
T6820 000:717.610 JLINK_CORESIGHT_WriteAPDPReg(AP reg 0x01, 0x80011130)
T6820 000:717.908 - 0.297ms returns 0
T6820 000:717.953 JLINK_CORESIGHT_ReadAPDPReg(AP reg 0x03)
T6820 000:718.372   Value=0x4E0A0081
T6820 000:718.406 - 0.452ms returns 0
T6820 000:718.438 JLINK_CORESIGHT_WriteAPDPReg(AP reg 0x00, 0x80000002)
T6820 000:718.708 - 0.269ms returns 0
T6820 000:718.742 JLINK_CORESIGHT_WriteAPDPReg(AP reg 0x01, 0x80011140)
T6820 000:719.007 - 0.265ms returns 0
T6820 000:719.031 JLINK_CORESIGHT_ReadAPDPReg(AP reg 0x03)
T6820 000:719.456   Value=0x00000000
T6820 000:719.496 - 0.465ms returns 0
T6820 000:719.515 JLINK_CORESIGHT_WriteAPDPReg(AP reg 0x00, 0x80000002)
T6820 000:719.972 - 0.455ms returns 0
T6820 000:720.034 JLINK_CORESIGHT_WriteAPDPReg(AP reg 0x01, 0x80011130)
T6820 000:720.416 - 0.381ms returns 0
T6820 000:720.459 JLINK_CORESIGHT_ReadAPDPReg(AP reg 0x03)
T6820 000:720.804   Value=0xFFFFFF00
T6820 000:720.855 - 0.395ms returns 0
T6820 000:720.877 JLINK_CORESIGHT_WriteAPDPReg(AP reg 0x00, 0x80000002)
T6820 000:721.204 - 0.327ms returns 0
T6820 000:721.240 JLINK_CORESIGHT_WriteAPDPReg(AP reg 0x01, 0x80011140)
T6820 000:721.533 - 0.292ms returns 0
T6820 000:721.568 JLINK_CORESIGHT_ReadAPDPReg(AP reg 0x03)
T6820 000:721.875   Value=0x00000000
T6820 000:721.909 - 0.340ms returns 0
T6820 000:721.930 JLINK_CORESIGHT_WriteAPDPReg(AP reg 0x00, 0x80000002)
T6820 000:722.210 - 0.279ms returns 0
T6820 000:722.246 JLINK_CORESIGHT_WriteAPDPReg(AP reg 0x01, 0x80011130)
T6820 000:722.611 - 0.359ms returns 0
T6820 000:722.654 JLINK_CORESIGHT_ReadAPDPReg(AP reg 0x03)
T6820 000:723.006   Value=0xFFFFFFFF
T6820 000:723.041 - 0.386ms returns 0
T6820 000:723.066 JLINK_CORESIGHT_WriteAPDPReg(AP reg 0x00, 0x80000002)
T6820 000:723.475 - 0.408ms returns 0
T6820 000:723.509 JLINK_CORESIGHT_WriteAPDPReg(AP reg 0x01, 0x80011140)
T6820 000:723.787 - 0.278ms returns 0
T6820 000:723.834 JLINK_CORESIGHT_ReadAPDPReg(AP reg 0x03)
T6820 000:724.133   Value=0x00000000
T6820 000:724.155 - 0.320ms returns 0
T6820 000:724.176 JLINK_CORESIGHT_WriteAPDPReg(AP reg 0x00, 0x80000002)
T6820 000:724.561 - 0.384ms returns 0
T6820 000:724.598 JLINK_CORESIGHT_WriteAPDPReg(AP reg 0x01, 0x80011130)
T6820 000:724.971 - 0.372ms returns 0
T6820 000:725.006 JLINK_CORESIGHT_ReadAPDPReg(AP reg 0x03)
T6820 000:725.430   Value=0x0003B0FF
T6820 000:725.462 - 0.456ms returns 0
T6820 000:726.151 JLINK_CORESIGHT_WriteAPDPReg(AP reg 0x00, 0x80000002)
T6820 000:726.519 - 0.367ms returns 0
T6820 000:726.551 JLINK_CORESIGHT_WriteAPDPReg(AP reg 0x01, 0x80011140)
